
**** 11/05/20 13:11:31 ******* PSpice Lite (March 2016) ******* ID# 10813 ****

 ** Profile: "SCHEMATIC1-exp_2"  [ C:\Users\dell\Desktop\courses\adc\exp_2\exp_2-pspicefiles\schematic1\exp_2.sim ] 


 ****     CIRCUIT DESCRIPTION


******************************************************************************




** Creating circuit file "exp_2.cir" 
** WARNING: THIS AUTOMATICALLY GENERATED FILE MAY BE OVERWRITTEN BY SUBSEQUENT SIMULATIONS

*Libraries: 
* Profile Libraries :
* Local Libraries :
* From [PSPICE NETLIST] section of C:\SPB_Data\cdssetup\OrCAD_PSpice\17.2.0\PSpice.ini file:
.lib "nomd.lib" 

*Analysis directives: 
.TRAN  0 4ms 0 
.OPTIONS ADVCONV
.PROBE64 V(alias(*)) I(alias(*)) W(alias(*)) D(alias(*)) NOISE(alias(*)) 
.INC "..\SCHEMATIC1.net" 



**** INCLUDING SCHEMATIC1.net ****
* source EXP_2
X_U1         N00371 N00331 N000562 N000563 N00316 LM741
R_R1         N00331 N00316  100k TC=0,0 
R_R2         N00335 N00331  10k TC=0,0 
R_R3         0 N00371  9.09k TC=0,0 
C_C1         N00331 N00316  16n  TC=0,0 
V_V1         N00335 0  
+PULSE 1 -1 0 1n 1n 0.5m 1m
V_V2         N000562 0 15
V_V3         0 N000563 15
C_C2         N00900 N00908  5n  TC=0,0 
R_R4         N00900 N00908  1.6k TC=0,0 
V_V5         N010182 0 15
R_R6         0 N01046  75.7 TC=0,0 
V_V4         0 N009761 15
V_V6         N01026 0  
+PULSE 1 -1 0 1n 1n 0.5m 1m
R_R5         N01232 N00900  79.5 TC=0,0 
X_U2         N01046 N00900 N010182 N009761 N00908 LM741
C_C3         N01026 N01232  0.1u  TC=0,0 

**** RESUMING exp_2.cir ****
.END

**** 11/05/20 13:11:31 ******* PSpice Lite (March 2016) ******* ID# 10813 ****

 ** Profile: "SCHEMATIC1-exp_2"  [ C:\Users\dell\Desktop\courses\adc\exp_2\exp_2-pspicefiles\schematic1\exp_2.sim ] 


 ****     Diode MODEL PARAMETERS


******************************************************************************




               X_U1.x_lm741.dx X_U1.x_lm741.dy X_U2.x_lm741.dx X_U2.x_lm741.dy 
          IS  800.000000E-18  800.000000E-18  800.000000E-18  800.000000E-18 
          RS    1               1.000000E-03    1               1.000000E-03 
         CJO                   10.000000E-12                   10.000000E-12 


**** 11/05/20 13:11:31 ******* PSpice Lite (March 2016) ******* ID# 10813 ****

 ** Profile: "SCHEMATIC1-exp_2"  [ C:\Users\dell\Desktop\courses\adc\exp_2\exp_2-pspicefiles\schematic1\exp_2.sim ] 


 ****     BJT MODEL PARAMETERS


******************************************************************************




               X_U1.x_lm741.qx X_U2.x_lm741.qx 
               NPN             NPN             
       LEVEL    1               1            
          IS  800.000000E-18  800.000000E-18 
          BF   93.75           93.75         
          NF    1               1            
          BR    1               1            
          NR    1               1            
         ISS    0               0            
          RE    0               0            
          RC    0               0            
         CJE    0               0            
         VJE     .75             .75         
         CJC    0               0            
         VJC     .75             .75         
         MJC     .33             .33         
        XCJC    1               1            
         CJS    0               0            
         VJS     .75             .75         
          KF    0               0            
          AF    1               1            
          CN    2.42            2.42         
           D     .87             .87         


**** 11/05/20 13:11:31 ******* PSpice Lite (March 2016) ******* ID# 10813 ****

 ** Profile: "SCHEMATIC1-exp_2"  [ C:\Users\dell\Desktop\courses\adc\exp_2\exp_2-pspicefiles\schematic1\exp_2.sim ] 


 ****     INITIAL TRANSIENT SOLUTION       TEMPERATURE =   27.000 DEG C


******************************************************************************



 NODE   VOLTAGE     NODE   VOLTAGE     NODE   VOLTAGE     NODE   VOLTAGE


(N00316)   -9.9992 (N00331)-654.8E-06 (N00335)    1.0000 (N00371)-724.2E-06     

(N00900) 13.22E-06 (N00908) 140.8E-06 (N01026)    1.0000 (N01046)-6.035E-06     

(N01232) 13.22E-06 (N000562)   15.0000                   (N000563)  -15.0000    

(N009761)  -15.0000                   (N010182)   15.0000                       

(X_U1.x_lm741.6) 943.9E-06            (X_U1.x_lm741.7)  -10.0040                

(X_U1.x_lm741.8)  -10.0040            (X_U1.x_lm741.9)    0.0000                

(X_U2.x_lm741.6)-14.69E-09            (X_U2.x_lm741.7) 144.8E-06                

(X_U2.x_lm741.8) 144.8E-06            (X_U2.x_lm741.9)    0.0000                

(X_U1.x_lm741.10)    -.6084           (X_U1.x_lm741.11)   14.9600               

(X_U1.x_lm741.12)   14.9600           (X_U1.x_lm741.13)    -.5945               

(X_U1.x_lm741.14)    -.5945           (X_U1.x_lm741.53)   14.0000               

(X_U1.x_lm741.54)  -14.0000           (X_U1.x_lm741.90)    -.1000               

(X_U1.x_lm741.91)   40.0000           (X_U1.x_lm741.92)  -40.0000               

(X_U1.x_lm741.99)    0.0000           (X_U2.x_lm741.10)    -.6077               

(X_U2.x_lm741.11)   14.9600           (X_U2.x_lm741.12)   14.9600               

(X_U2.x_lm741.13)    -.5938           (X_U2.x_lm741.14)    -.5938               

(X_U2.x_lm741.53)   14.0000           (X_U2.x_lm741.54)  -14.0000               

(X_U2.x_lm741.90) 79.76E-06           (X_U2.x_lm741.91)   40.0000               

(X_U2.x_lm741.92)  -40.0000           (X_U2.x_lm741.99)    0.0000           




    VOLTAGE SOURCE CURRENTS
    NAME         CURRENT

    V_V1        -1.001E-04
    V_V2        -1.667E-03
    V_V3        -1.667E-03
    V_V5        -1.667E-03
    V_V4        -1.667E-03
    V_V6         0.000E+00
    X_U1.x_lm741.vb   9.439E-09
    X_U1.x_lm741.vc   2.400E-11
    X_U1.x_lm741.ve   5.918E-12
    X_U1.x_lm741.vlim  -9.999E-05
    X_U1.x_lm741.vlp  -4.010E-11
    X_U1.x_lm741.vln  -3.990E-11
    X_U2.x_lm741.vb  -1.469E-13
    X_U2.x_lm741.vc   1.400E-11
    X_U2.x_lm741.ve   1.592E-11
    X_U2.x_lm741.vlim   7.976E-08
    X_U2.x_lm741.vlp  -4.000E-11
    X_U2.x_lm741.vln  -4.000E-11

    TOTAL POWER DISSIPATION   1.00E-01  WATTS



          JOB CONCLUDED

**** 11/05/20 13:11:31 ******* PSpice Lite (March 2016) ******* ID# 10813 ****

 ** Profile: "SCHEMATIC1-exp_2"  [ C:\Users\dell\Desktop\courses\adc\exp_2\exp_2-pspicefiles\schematic1\exp_2.sim ] 


 ****     JOB STATISTICS SUMMARY


******************************************************************************



  Total job time (using Solver 1)   =         .31
